
T0E2C 000:387 SEGGER J-Link V4.35b (beta) Log File (0001ms, 0386ms total)
T0E2C 000:387 DLL Compiled: Sep  2 2011 18:34:46 (0001ms, 0386ms total)
T0E2C 000:387 Logging started @ 2016-12-13 10:53 (0001ms, 0386ms total)
T0E2C 000:388 JLINK_SetWarnOutHandler(...) (0000ms, 0387ms total)
T0E2C 000:388 JLINK_OpenEx(...)
Firmware: J-Link ARM V8 compiled Sep  2 2011 17:54:36
Hardware: V8.00
S/N: 304439649
Feature(s): RDI,FlashDL,FlashBP,JFlash,GDBFULL  returns O.K. (0152ms, 0387ms total)
T0E2C 000:540 JLINK_SetErrorOutHandler(...) (0000ms, 0539ms total)
T0E2C 000:540 JLINK_ExecCommand("Device = STM32F103ZE", ...)
                JLINK_ExecCommand("map ram 0x20000000 - 0x2000FFFF", ...)  returns 0x00 (0000ms, 0000ms total)
                JLINK_AddMirrorAreaEx(Addr = 0x00000000, Size = 0x00000000) (0000ms, 0000ms total)
              Device "STM32F103ZE" selected (512 KB flash, 64 KB RAM).  returns 0x00 (0010ms, 0539ms total)
T0E2C 000:552 JLINK_ExecCommand("ProjectFile = "D:\STM32¹¤³Ì\JLinkSettings.ini"", ...)  returns 0x00 (0001ms, 0549ms total)
T0E2C 000:554 JLINK_ExecCommand("DisableConnectionTimeout", ...)  returns 0x00 (0000ms, 0550ms total)
T0E2C 000:555 JLINK_TIF_Select(JLINKARM_TIF_JTAG)  returns 0x00 (0000ms, 0550ms total)
T0E2C 000:555 JLINK_SetSpeed(2000) (0001ms, 0550ms total)
T0E2C 000:556 JLINK_GetHardwareVersion()  returns 0x13880 (0000ms, 0551ms total)
T0E2C 000:556 JLINK_GetDLLVersion()  returns 43502 (0000ms, 0551ms total)
T0E2C 000:556 JLINK_GetFirmwareString(...) (0000ms, 0551ms total)
T0E2C 000:556 JLINK_GetDLLVersion()  returns 43502 (0000ms, 0551ms total)
T0E2C 000:556 JLINK_GetCompileDateTime() (0000ms, 0551ms total)
T0E2C 000:556 JLINK_GetFirmwareString(...) (0000ms, 0551ms total)
T0E2C 000:556 JLINK_GetHardwareVersion()  returns 0x13880 (0000ms, 0551ms total)
T0E2C 000:556 JLINK_GetIdData(...) >0x2F8 JTAG>TotalIRLen = 9, IRPrint = 0x0011 >0x30 JTAG> >0x210 JTAG> >0x80 JTAG> >0x40 JTAG> >0x40 JTAG> >0x50 JTAG> >0x40 JTAG> >0x40 JTAG> >0x40 JTAG> >0x50 JTAG> >0x40 JTAG> >0x50 JTAG> >0x40 JTAG> >0x40 JTAG> >0x40 JTAG> >0x30 JTAG> >0x40 JTAG> >0x50 JTAG> >0x40 JTAG> >0x38 JTAG> >0x80 JTAG> >0x40 JTAG> >0x40 JTAG> >0x50 JTAG> >0x40 JTAG> >0x40 JTAG> >0x40 JTAG> >0x50 JTAG> >0x40 JTAG> >0x40 JTAG> >0x30 JTAG> >0x40 JTAG> >0x40 JTAG> >0x40 JTAG> >0x40 JTAG>
 >0x40 JTAG> >0x50 JTAG> >0x40 JTAG> >0x80 JTAG> >0x40 JTAG> >0x30 JTAG> >0x40 JTAG> >0x40 JTAG> >0x40 JTAG> >0x40 JTAG> >0x40 JTAG> >0x50 JTAG> >0x40 JTAG> >0x80 JTAG> >0x40 JTAG> >0x30 JTAG> >0x40 JTAG> >0x50 JTAG> >0x40 JTAG> >0x40 JTAG> >0x40 JTAG> >0x30 JTAG> >0x40 JTAG> >0x50 JTAG> >0x40 JTAG>Found Cortex-M3 r1p1, Little endian. >0x50 JTAG> >0x50 JTAG> >0x40 JTAG> >0x40 JTAG> >0x30 JTAG> >0x30 JTAG> >0x50 JTAG> >0x40 JTAG> >0x80 JTAG> >0x40 JTAG> >0x30 JTAG> >0x40 JTAG> >0x50 JTAG> >0x40 JTAG>
 >0x40 JTAG> >0x40 JTAG> >0x30 JTAG> >0x40 JTAG> >0x50 JTAG> >0x40 JTAG>TPIU fitted. >0x40 JTAG> >0x40 JTAG> >0x30 JTAG> >0x40 JTAG> >0x50 JTAG> >0x40 JTAG>ETM fitted. >0x40 JTAG> >0x40 JTAG> >0x30 JTAG> >0x40 JTAG> >0x50 JTAG> >0x40 JTAG> >0x40 JTAG> >0x40 JTAG> >0x30 JTAG> >0x40 JTAG> >0x50 JTAG> >0x40 JTAG>  FPUnit: 6 code (BP) slots and 2 literal slots >0x40 JTAG> >0x40 JTAG> >0x30 JTAG> >0x40 JTAG> >0x50 JTAG> >0x40 JTAG> ScanLen=9 NumDevices=2 aId[0]=0x3BA00477 aIrRead[0]=0 aScanLen[0]=0
 aScanRead[0]=0 (0084ms, 0551ms total)
T0E2C 000:640 JLINK_JTAG_GetDeviceID(DeviceIndex = 0)  returns 0x3BA00477 (0000ms, 0635ms total)
T0E2C 000:640 JLINK_JTAG_GetDeviceInfo(DeviceIndex = 0)  returns 0x00 (0000ms, 0635ms total)
T0E2C 000:640 JLINK_JTAG_GetDeviceID(DeviceIndex = 1)  returns 0x6414041 (0000ms, 0635ms total)
T0E2C 000:640 JLINK_JTAG_GetDeviceInfo(DeviceIndex = 1)  returns 0x00 (0000ms, 0635ms total)
T0E2C 000:640 JLINK_GetDebugInfo(0x100) -- Value=0xE00FF003  returns 0x00 (0000ms, 0635ms total)
T0E2C 000:651 JLINK_ReadMem (0xE00FFFF0, 0x0010 Bytes, ...) -- CPU is running -- CPU_ReadMem(16 bytes @ 0xE00FFFF0) -- Data:  0D 00 00 00 10 00 00 00 05 00 00 00 B1 00 00 00  returns 0x00 (0004ms, 0635ms total)
T0E2C 000:655 JLINK_ReadMem (0xE00FFFD0, 0x0020 Bytes, ...) -- CPU is running -- CPU_ReadMem(32 bytes @ 0xE00FFFD0) -- Data:  00 00 00 00 00 00 00 00 00 00 00 00 00 00 00 00 ...  returns 0x00 (0002ms, 0639ms total)
T0E2C 000:657 JLINK_ReadMem (0xE00FF000, 0x0018 Bytes, ...) -- CPU is running -- CPU_ReadMem(24 bytes @ 0xE00FF000) -- Data:  03 F0 F0 FF 03 20 F0 FF 03 30 F0 FF 03 10 F0 FF ...  returns 0x00 (0002ms, 0641ms total)
T0E2C 000:659 JLINK_ReadMemU32(0xE000ED00, 0x0001 Items, ...) -- CPU is running -- CPU_ReadMem(4 bytes @ 0xE000ED00) -- Data:  31 C2 1F 41  returns 0x01 (0001ms, 0643ms total)
T0E2C 000:660 JLINK_SetResetType(JLINKARM_RESET_TYPE_NORMAL)  returns JLINKARM_RESET_TYPE_NORMAL (0000ms, 0644ms total)
T0E2C 000:660 JLINK_Reset() >0x308 JTAG>TotalIRLen = 9, IRPrint = 0x0011 >0x30 JTAG> >0x210 JTAG> >0x80 JTAG> >0x40 JTAG> >0x40 JTAG> >0x50 JTAG> >0x40 JTAG> >0x40 JTAG> >0x40 JTAG> >0x50 JTAG> >0x40 JTAG> >0x50 JTAG> >0x40 JTAG> >0x40 JTAG> >0x40 JTAG> >0x30 JTAG> >0x40 JTAG> >0x50 JTAG> >0x40 JTAG> >0x38 JTAG> >0x80 JTAG> >0x40 JTAG> >0x40 JTAG> >0x50 JTAG> >0x40 JTAG> >0x40 JTAG> >0x40 JTAG> >0x50 JTAG> >0x40 JTAG> >0x40 JTAG> >0x30 JTAG> >0x40 JTAG> >0x40 JTAG> >0x40 JTAG> >0x40 JTAG> >0x40 JTAG>
 >0x50 JTAG> >0x40 JTAG> >0x80 JTAG> >0x40 JTAG> >0x30 JTAG> >0x40 JTAG> >0x40 JTAG> >0x40 JTAG> >0x40 JTAG> >0x40 JTAG> >0x50 JTAG> >0x40 JTAG> >0x80 JTAG> >0x40 JTAG> >0x30 JTAG> >0x40 JTAG> >0x50 JTAG> >0x40 JTAG> >0x40 JTAG> >0x40 JTAG> >0x30 JTAG> >0x40 JTAG> >0x50 JTAG> >0x40 JTAG>Found Cortex-M3 r1p1, Little endian. >0x50 JTAG> >0x50 JTAG> >0x40 JTAG> >0x40 JTAG> >0x30 JTAG> >0x30 JTAG> >0x50 JTAG> >0x40 JTAG> >0x80 JTAG> >0x40 JTAG> >0x30 JTAG> >0x40 JTAG> >0x50 JTAG> >0x40 JTAG> >0x40 JTAG>
 >0x40 JTAG> >0x30 JTAG> >0x40 JTAG> >0x50 JTAG> >0x40 JTAG>TPIU fitted. >0x40 JTAG> >0x40 JTAG> >0x30 JTAG> >0x40 JTAG> >0x50 JTAG> >0x40 JTAG>ETM fitted. >0x40 JTAG> >0x40 JTAG> >0x30 JTAG> >0x40 JTAG> >0x50 JTAG> >0x40 JTAG> >0x40 JTAG> >0x40 JTAG> >0x30 JTAG> >0x40 JTAG> >0x50 JTAG> >0x40 JTAG>  FPUnit: 6 code (BP) slots and 2 literal slots >0x40 JTAG> >0x40 JTAG> >0x30 JTAG> >0x40 JTAG> >0x50 JTAG> >0x40 JTAG> -- CPU is running -- CPU_WriteMem(4 bytes @ 0xE000EDF0) -- CPU is running
 -- CPU_WriteMem(4 bytes @ 0xE000EDFC) -- CPU is running -- CPU_WriteMem(4 bytes @ 0xE000ED0C) -- CPU is running -- CPU_ReadMem(4 bytes @ 0xE000EDF0) -- CPU is running -- CPU_ReadMem(4 bytes @ 0xE000EDF0) -- CPU is running -- CPU_WriteMem(4 bytes @ 0xE000EDF0) -- CPU is running -- CPU_WriteMem(4 bytes @ 0xE000EDFC) -- CPU is running -- CPU_ReadMem(4 bytes @ 0xE000EDF0) >0x90 JTAG> >0x40 JTAG> >0x30 JTAG> >0x40 JTAG> >0x50 JTAG> >0x40 JTAG> -- CPU_WriteMem(4 bytes @ 0xE000EDFC)
 -- CPU_WriteMem(4 bytes @ 0xE0001028) -- CPU_WriteMem(4 bytes @ 0xE0001038) -- CPU_WriteMem(4 bytes @ 0xE0001048) -- CPU_WriteMem(4 bytes @ 0xE0001058) (0122ms, 0644ms total)
T0E2C 000:782 JLINK_ReadReg(R15)  returns 0x08000360 (0000ms, 0766ms total)
T0E2C 000:782 JLINK_ReadReg(XPSR)  returns 0x01000000 (0000ms, 0766ms total)
T0E2C 000:782 JLINK_Halt()  returns 0x00 (0000ms, 0766ms total)
T0E2C 000:782 JLINK_IsHalted()  returns TRUE (0000ms, 0766ms total)
T0E2C 000:782 JLINK_ReadMemU32(0xE000EDF0, 0x0001 Items, ...) -- CPU_ReadMem(4 bytes @ 0xE000EDF0) -- Data:  03 00 03 00  returns 0x01 (0001ms, 0766ms total)
T0E2C 000:783 JLINK_WriteU32(0xE000EDF0, 0xA05F0003) -- CPU_WriteMem(4 bytes @ 0xE000EDF0)  returns 0x00 (0001ms, 0767ms total)
T0E2C 000:784 JLINK_WriteU32(0xE000EDFC, 0x01000000) -- CPU_WriteMem(4 bytes @ 0xE000EDFC)  returns 0x00 (0001ms, 0768ms total)
T0E2C 000:785 JLINK_ReadMemU32(0xE0002000, 0x0001 Items, ...) -- CPU_ReadMem(4 bytes @ 0xE0002000) -- Data:  60 02 00 00  returns 0x01 (0001ms, 0769ms total)
T0E2C 000:786 JLINK_ReadMemU32(0xE0001000, 0x0001 Items, ...) -- CPU_ReadMem(4 bytes @ 0xE0001000) -- Data:  01 00 00 40  returns 0x01 (0001ms, 0770ms total)
T0E2C 000:787 JLINK_WriteU32(0xE0001028, 0x00000000) -- CPU_WriteMem(4 bytes @ 0xE0001028)  returns 0x00 (0001ms, 0771ms total)
T0E2C 000:788 JLINK_WriteU32(0xE0001038, 0x00000000) -- CPU_WriteMem(4 bytes @ 0xE0001038)  returns 0x00 (0001ms, 0772ms total)
T0E2C 000:789 JLINK_WriteU32(0xE0001048, 0x00000000) -- CPU_WriteMem(4 bytes @ 0xE0001048)  returns 0x00 (0001ms, 0773ms total)
T0E2C 000:790 JLINK_WriteU32(0xE0001058, 0x00000000) -- CPU_WriteMem(4 bytes @ 0xE0001058)  returns 0x00 (0000ms, 0774ms total)
T0E2C 000:791 JLINK_GetHWStatus(...)  returns 0x00 (0000ms, 0774ms total)
T0E2C 000:792 JLINK_GetNumBPUnits(Type = 0xFFFFFF00)  returns 0x06 (0000ms, 0774ms total)
T0E2C 000:792 JLINK_GetNumBPUnits(Type = 0xF0)  returns 0x2000 (0000ms, 0774ms total)
T0E2C 000:792 JLINK_GetNumWPUnits()  returns 0x00 (0000ms, 0774ms total)
T0E2C 000:792 JLINK_GetSpeed()  returns 0x7D0 (0000ms, 0774ms total)
T0E2C 000:792 JLINK_ReadMemU32(0xE000E004, 0x0001 Items, ...) -- CPU_ReadMem(4 bytes @ 0xE000E004) -- Data:  01 00 00 00  returns 0x01 (0001ms, 0774ms total)
T0E2C 000:793 JLINK_ReadMemU32(0xE000E004, 0x0001 Items, ...) -- CPU_ReadMem(4 bytes @ 0xE000E004) -- Data:  01 00 00 00  returns 0x01 (0001ms, 0775ms total)
T0E2C 000:794 JLINK_WriteMem(0xE0001000, 0x001C Bytes, ...) -- Data:  01 00 00 00 00 00 00 00 00 00 00 00 00 00 00 00 ... -- CPU_WriteMem(28 bytes @ 0xE0001000)  returns 0x1C (0001ms, 0776ms total)
T0E2C 000:795 JLINK_ReadMem (0xE0001000, 0x001C Bytes, ...) -- CPU_ReadMem(28 bytes @ 0xE0001000) -- Data:  01 00 00 40 00 00 00 00 00 00 00 00 00 00 00 00 ...  returns 0x00 (0001ms, 0777ms total)
T0E2C 000:796 JLINK_ReadReg(R15)  returns 0x08000360 (0000ms, 0778ms total)
T0E2C 000:796 JLINK_ReadReg(XPSR)  returns 0x01000000 (0000ms, 0778ms total)
T0E2C 000:897 JLINK_SetResetType(JLINKARM_RESET_TYPE_NORMAL)  returns JLINKARM_RESET_TYPE_NORMAL (0000ms, 0778ms total)
T0E2C 000:897 JLINK_Reset() >0x2F8 JTAG>TotalIRLen = 9, IRPrint = 0x0011 >0x30 JTAG> >0x210 JTAG> >0x80 JTAG> >0x40 JTAG> >0x40 JTAG> >0x50 JTAG> >0x40 JTAG> >0x40 JTAG> >0x40 JTAG> >0x50 JTAG> >0x40 JTAG> >0x50 JTAG> >0x40 JTAG> >0x40 JTAG> >0x40 JTAG> >0x30 JTAG> >0x40 JTAG> >0x50 JTAG> >0x40 JTAG> >0x38 JTAG> >0x80 JTAG> >0x40 JTAG> >0x40 JTAG> >0x50 JTAG> >0x40 JTAG> >0x40 JTAG> >0x40 JTAG> >0x50 JTAG> >0x40 JTAG> >0x40 JTAG> >0x30 JTAG> >0x40 JTAG> >0x40 JTAG> >0x40 JTAG> >0x40 JTAG> >0x40 JTAG>
 >0x50 JTAG> >0x40 JTAG> >0x80 JTAG> >0x40 JTAG> >0x30 JTAG> >0x40 JTAG> >0x40 JTAG> >0x40 JTAG> >0x40 JTAG> >0x40 JTAG> >0x50 JTAG> >0x40 JTAG> >0x80 JTAG> >0x40 JTAG> >0x30 JTAG> >0x40 JTAG> >0x50 JTAG> >0x40 JTAG> >0x40 JTAG> >0x40 JTAG> >0x30 JTAG> >0x40 JTAG> >0x50 JTAG> >0x40 JTAG>Found Cortex-M3 r1p1, Little endian. >0x50 JTAG> >0x50 JTAG> >0x40 JTAG> >0x40 JTAG> >0x30 JTAG> >0x30 JTAG> >0x50 JTAG> >0x40 JTAG> >0x80 JTAG> >0x40 JTAG> >0x30 JTAG> >0x40 JTAG> >0x50 JTAG> >0x40 JTAG> >0x40 JTAG>
 >0x40 JTAG> >0x30 JTAG> >0x40 JTAG> >0x50 JTAG> >0x40 JTAG>TPIU fitted. >0x40 JTAG> >0x40 JTAG> >0x30 JTAG> >0x40 JTAG> >0x50 JTAG> >0x40 JTAG>ETM fitted. >0x40 JTAG> >0x40 JTAG> >0x30 JTAG> >0x40 JTAG> >0x50 JTAG> >0x40 JTAG> >0x40 JTAG> >0x40 JTAG> >0x30 JTAG> >0x40 JTAG> >0x50 JTAG> >0x40 JTAG>  FPUnit: 6 code (BP) slots and 2 literal slots >0x40 JTAG> >0x40 JTAG> >0x30 JTAG> >0x40 JTAG> >0x50 JTAG> >0x40 JTAG> -- CPU_WriteMem(4 bytes @ 0xE000EDF0) -- CPU_WriteMem(4 bytes @ 0xE000EDFC)
 -- CPU_WriteMem(4 bytes @ 0xE000ED0C) -- CPU_ReadMem(4 bytes @ 0xE000EDF0) -- CPU_ReadMem(4 bytes @ 0xE000EDF0) -- CPU_WriteMem(4 bytes @ 0xE000EDF0) -- CPU_WriteMem(4 bytes @ 0xE000EDFC) -- CPU is running -- CPU_ReadMem(4 bytes @ 0xE000EDF0) >0x90 JTAG> >0x40 JTAG> >0x30 JTAG> >0x40 JTAG> >0x50 JTAG> >0x40 JTAG> -- CPU_WriteMem(4 bytes @ 0xE000EDFC) -- CPU_WriteMem(4 bytes @ 0xE0001028) -- CPU_WriteMem(4 bytes @ 0xE0001038) -- CPU_WriteMem(4 bytes @ 0xE0001048) -- CPU_WriteMem(4 bytes @ 0xE0001058)
 (0117ms, 0778ms total)
T0E2C 001:015 JLINK_ReadReg(R15)  returns 0x08000360 (0000ms, 0895ms total)
T0E2C 001:015 JLINK_ReadReg(XPSR)  returns 0x01000000 (0000ms, 0895ms total)
T0E2C 001:015 JLINK_ReadReg(R0)  returns 0x00000000 (0000ms, 0895ms total)
T0E2C 001:015 JLINK_ReadReg(R1)  returns 0x00000003 (0000ms, 0895ms total)
T0E2C 001:015 JLINK_ReadReg(R2)  returns 0x40022000 (0000ms, 0895ms total)
T0E2C 001:015 JLINK_ReadReg(R3)  returns 0x04C11DB7 (0000ms, 0895ms total)
T0E2C 001:015 JLINK_ReadReg(R4)  returns 0x00000000 (0000ms, 0895ms total)
T0E2C 001:015 JLINK_ReadReg(R5)  returns 0x00000000 (0000ms, 0895ms total)
T0E2C 001:015 JLINK_ReadReg(R6)  returns 0x00000000 (0000ms, 0895ms total)
T0E2C 001:015 JLINK_ReadReg(R7)  returns 0x00000000 (0000ms, 0895ms total)
T0E2C 001:015 JLINK_ReadReg(R8)  returns 0x00000000 (0001ms, 0895ms total)
T0E2C 001:016 JLINK_ReadReg(R9)  returns 0x20000160 (0000ms, 0896ms total)
T0E2C 001:016 JLINK_ReadReg(R10)  returns 0x00000000 (0000ms, 0896ms total)
T0E2C 001:016 JLINK_ReadReg(R11)  returns 0x00000000 (0000ms, 0896ms total)
T0E2C 001:016 JLINK_ReadReg(R12)  returns 0x00000000 (0000ms, 0896ms total)
T0E2C 001:016 JLINK_ReadReg(R13)  returns 0x20000470 (0000ms, 0896ms total)
T0E2C 001:016 JLINK_ReadReg(R14)  returns 0xFFFFFFFF (0000ms, 0896ms total)
T0E2C 001:016 JLINK_ReadReg(R15)  returns 0x08000360 (0000ms, 0896ms total)
T0E2C 001:016 JLINK_ReadReg(XPSR)  returns 0x01000000 (0000ms, 0896ms total)
T0E2C 001:016 JLINK_ReadReg(MSP)  returns 0x20000470 (0000ms, 0896ms total)
T0E2C 001:016 JLINK_ReadReg(PSP)  returns 0x20000800 (0000ms, 0896ms total)
T0E2C 001:016 JLINK_ReadReg(BASEPRI)  returns 0x00000000 (0000ms, 0896ms total)
T0E2C 001:016 JLINK_ReadReg(CONTROL)  returns 0x00000000 (0000ms, 0896ms total)
T0E2C 001:016 JLINK_ReadReg(FAULTMASK)  returns 0x00000000 (0000ms, 0896ms total)
T0E2C 001:016 JLINK_ReadReg(BASEPRI_MAX)  returns 0x00000000 (0000ms, 0896ms total)
T0E2C 001:016 JLINK_ReadMemU32(0xE0001004, 0x0001 Items, ...) -- CPU_ReadMem(4 bytes @ 0xE0001004) -- Data:  00 00 00 00  returns 0x01 (0001ms, 0896ms total)
T0E2C 001:017 JLINK_ReadMem (0x08000360, 0x003C Bytes, ...) -- CPU_ReadMem(128 bytes @ 0x08000340) -- Updating C cache (128 bytes @ 0x08000340) -- Read from C cache (60 bytes @ 0x08000360) -- Data:  06 48 80 47 06 48 00 47 FE E7 FE E7 FE E7 FE E7 ...  returns 0x00 (0002ms, 0897ms total)
T0E2C 001:945 JLINK_ReadMemU32(0xE0001004, 0x0001 Items, ...) -- CPU_ReadMem(4 bytes @ 0xE0001004) -- Data:  00 00 00 00  returns 0x01 (0001ms, 0899ms total)
T15C8 002:817 JLINK_Step() -- Read from C cache (2 bytes @ 0x08000360) -- Not simulated  returns 0x00 (0010ms, 0900ms total)
T15C8 002:827 JLINK_ReadReg(R15)  returns 0x08000362 (0000ms, 0910ms total)
T15C8 002:827 JLINK_ReadReg(XPSR)  returns 0x01000000 (0000ms, 0910ms total)
T0E2C 002:827 JLINK_ReadReg(R0)  returns 0x08000251 (0000ms, 0910ms total)
T0E2C 002:827 JLINK_ReadReg(R1)  returns 0x00000003 (0000ms, 0910ms total)
T0E2C 002:827 JLINK_ReadReg(R2)  returns 0x40022000 (0000ms, 0910ms total)
T0E2C 002:827 JLINK_ReadReg(R3)  returns 0x04C11DB7 (0000ms, 0910ms total)
T0E2C 002:827 JLINK_ReadReg(R4)  returns 0x00000000 (0000ms, 0910ms total)
T0E2C 002:827 JLINK_ReadReg(R5)  returns 0x00000000 (0000ms, 0910ms total)
T0E2C 002:827 JLINK_ReadReg(R6)  returns 0x00000000 (0000ms, 0910ms total)
T0E2C 002:827 JLINK_ReadReg(R7)  returns 0x00000000 (0000ms, 0910ms total)
T0E2C 002:828 JLINK_ReadReg(R8)  returns 0x00000000 (0000ms, 0910ms total)
T0E2C 002:828 JLINK_ReadReg(R9)  returns 0x20000160 (0000ms, 0910ms total)
T0E2C 002:828 JLINK_ReadReg(R10)  returns 0x00000000 (0000ms, 0910ms total)
T0E2C 002:828 JLINK_ReadReg(R11)  returns 0x00000000 (0000ms, 0910ms total)
T0E2C 002:828 JLINK_ReadReg(R12)  returns 0x00000000 (0000ms, 0910ms total)
T0E2C 002:828 JLINK_ReadReg(R13)  returns 0x20000470 (0000ms, 0910ms total)
T0E2C 002:828 JLINK_ReadReg(R14)  returns 0xFFFFFFFF (0000ms, 0910ms total)
T0E2C 002:828 JLINK_ReadReg(R15)  returns 0x08000362 (0000ms, 0910ms total)
T0E2C 002:828 JLINK_ReadReg(XPSR)  returns 0x01000000 (0000ms, 0910ms total)
T0E2C 002:828 JLINK_ReadReg(MSP)  returns 0x20000470 (0000ms, 0910ms total)
T0E2C 002:828 JLINK_ReadReg(PSP)  returns 0x20000800 (0000ms, 0910ms total)
T0E2C 002:828 JLINK_ReadReg(BASEPRI)  returns 0x00000000 (0000ms, 0910ms total)
T0E2C 002:828 JLINK_ReadReg(CONTROL)  returns 0x00000000 (0000ms, 0910ms total)
T0E2C 002:828 JLINK_ReadReg(FAULTMASK)  returns 0x00000000 (0000ms, 0910ms total)
T0E2C 002:828 JLINK_ReadReg(BASEPRI_MAX)  returns 0x00000000 (0000ms, 0910ms total)
T0E2C 002:831 JLINK_ReadMemU32(0xE0001004, 0x0001 Items, ...) -- CPU_ReadMem(4 bytes @ 0xE0001004) -- Data:  02 00 00 00  returns 0x01 (0002ms, 0910ms total)
T15C8 003:016 JLINK_ReadMem (0x08000362, 0x0002 Bytes, ...) -- CPU_ReadMem(64 bytes @ 0x08000340) -- Updating C cache (64 bytes @ 0x08000340) -- Read from C cache (2 bytes @ 0x08000362) -- Data:  80 47  returns 0x00 (0002ms, 0912ms total)
T15C8 003:020 JLINK_ReadMem (0x08000364, 0x003C Bytes, ...) -- CPU_ReadMem(64 bytes @ 0x08000380) -- Updating C cache (64 bytes @ 0x08000380) -- Read from C cache (60 bytes @ 0x08000364) -- Data:  06 48 00 47 FE E7 FE E7 FE E7 FE E7 FE E7 FE E7 ...  returns 0x00 (0002ms, 0914ms total)
T15C8 003:022 JLINK_SetBPEx(Addr = 0x08000364, Type = 0xFFFFFFF2)  returns 0x00000001 (0000ms, 0916ms total)
T15C8 003:022 JLINK_Go() -- CPU_WriteMem(4 bytes @ 0xE0002000) -- CPU_WriteMem(4 bytes @ 0xE0002008) -- CPU_WriteMem(4 bytes @ 0xE000200C) -- CPU_WriteMem(4 bytes @ 0xE0002010) -- CPU_WriteMem(4 bytes @ 0xE0002014) -- CPU_WriteMem(4 bytes @ 0xE0002018) -- CPU_WriteMem(4 bytes @ 0xE000201C) (0010ms, 0916ms total)
T15C8 003:132 JLINK_IsHalted()  returns TRUE (0006ms, 0926ms total)
T15C8 003:138 JLINK_Halt()  returns 0x00 (0000ms, 0926ms total)
T15C8 003:138 JLINK_IsHalted()  returns TRUE (0000ms, 0926ms total)
T15C8 003:138 JLINK_IsHalted()  returns TRUE (0000ms, 0926ms total)
T15C8 003:138 JLINK_IsHalted()  returns TRUE (0000ms, 0926ms total)
T15C8 003:138 JLINK_ReadReg(R15)  returns 0x08000364 (0000ms, 0926ms total)
T15C8 003:138 JLINK_ReadReg(XPSR)  returns 0x61000000 (0000ms, 0926ms total)
T15C8 003:138 JLINK_ClrBPEx(BPHandle = 0x00000001)  returns 0x00 (0000ms, 0926ms total)
T15C8 003:138 JLINK_ReadMemU32(0xE000ED30, 0x0001 Items, ...) -- CPU_ReadMem(4 bytes @ 0xE000ED30) -- Data:  03 00 00 00  returns 0x01 (0001ms, 0926ms total)
T15C8 003:139 JLINK_ReadMemU32(0xE0001028, 0x0001 Items, ...) -- CPU_ReadMem(4 bytes @ 0xE0001028) -- Data:  00 00 00 00  returns 0x01 (0002ms, 0927ms total)
T15C8 003:141 JLINK_ReadMemU32(0xE0001038, 0x0001 Items, ...) -- CPU_ReadMem(4 bytes @ 0xE0001038) -- Data:  00 02 00 00  returns 0x01 (0001ms, 0929ms total)
T15C8 003:142 JLINK_ReadMemU32(0xE0001048, 0x0001 Items, ...) -- CPU_ReadMem(4 bytes @ 0xE0001048) -- Data:  00 00 00 00  returns 0x01 (0002ms, 0930ms total)
T15C8 003:144 JLINK_ReadMemU32(0xE0001058, 0x0001 Items, ...) -- CPU_ReadMem(4 bytes @ 0xE0001058) -- Data:  00 00 00 00  returns 0x01 (0001ms, 0932ms total)
T0E2C 003:146 JLINK_ReadReg(R0)  returns 0x08000000 (0000ms, 0933ms total)
T0E2C 003:146 JLINK_ReadReg(R1)  returns 0xE000ED08 (0000ms, 0933ms total)
T0E2C 003:146 JLINK_ReadReg(R2)  returns 0x00000008 (0000ms, 0933ms total)
T0E2C 003:146 JLINK_ReadReg(R3)  returns 0x40021000 (0000ms, 0933ms total)
T0E2C 003:146 JLINK_ReadReg(R4)  returns 0x00000000 (0000ms, 0933ms total)
T0E2C 003:146 JLINK_ReadReg(R5)  returns 0x00000000 (0000ms, 0933ms total)
T0E2C 003:146 JLINK_ReadReg(R6)  returns 0x00000000 (0000ms, 0933ms total)
T0E2C 003:146 JLINK_ReadReg(R7)  returns 0x00000000 (0000ms, 0933ms total)
T0E2C 003:146 JLINK_ReadReg(R8)  returns 0x00000000 (0000ms, 0933ms total)
T0E2C 003:146 JLINK_ReadReg(R9)  returns 0x20000160 (0000ms, 0933ms total)
T0E2C 003:146 JLINK_ReadReg(R10)  returns 0x00000000 (0000ms, 0933ms total)
T0E2C 003:146 JLINK_ReadReg(R11)  returns 0x00000000 (0000ms, 0933ms total)
T0E2C 003:146 JLINK_ReadReg(R12)  returns 0x00000000 (0000ms, 0933ms total)
T0E2C 003:146 JLINK_ReadReg(R13)  returns 0x20000470 (0000ms, 0933ms total)
T0E2C 003:146 JLINK_ReadReg(R14)  returns 0x0800024F (0000ms, 0933ms total)
T0E2C 003:146 JLINK_ReadReg(R15)  returns 0x08000364 (0000ms, 0933ms total)
T0E2C 003:146 JLINK_ReadReg(XPSR)  returns 0x61000000 (0000ms, 0933ms total)
T0E2C 003:146 JLINK_ReadReg(MSP)  returns 0x20000470 (0000ms, 0933ms total)
T0E2C 003:146 JLINK_ReadReg(PSP)  returns 0x20000800 (0000ms, 0933ms total)
T0E2C 003:146 JLINK_ReadReg(BASEPRI)  returns 0x00000000 (0000ms, 0933ms total)
T0E2C 003:146 JLINK_ReadReg(CONTROL)  returns 0x00000000 (0001ms, 0933ms total)
T0E2C 003:147 JLINK_ReadReg(FAULTMASK)  returns 0x00000000 (0000ms, 0934ms total)
T0E2C 003:147 JLINK_ReadReg(BASEPRI_MAX)  returns 0x00000000 (0000ms, 0934ms total)
T0E2C 003:147 JLINK_ReadMem (0x20000474, 0x0004 Bytes, ...) -- CPU_ReadMem(64 bytes @ 0x20000440) -- Updating C cache (64 bytes @ 0x20000440) -- Read from C cache (4 bytes @ 0x20000474) -- Data:  FF FF FF FF  returns 0x00 (0002ms, 0934ms total)
T0E2C 003:152 JLINK_ReadMemU32(0xE0001004, 0x0001 Items, ...) -- CPU_ReadMem(4 bytes @ 0xE0001004) -- Data:  F0 0F 00 00  returns 0x01 (0002ms, 0936ms total)
T15C8 003:368 JLINK_ReadMem (0x08000364, 0x003C Bytes, ...) -- CPU_ReadMem(128 bytes @ 0x08000340) -- Updating C cache (128 bytes @ 0x08000340) -- Read from C cache (60 bytes @ 0x08000364) -- Data:  06 48 00 47 FE E7 FE E7 FE E7 FE E7 FE E7 FE E7 ...  returns 0x00 (0003ms, 0938ms total)
T15C8 003:371 JLINK_Step() -- Read from C cache (2 bytes @ 0x08000364) -- Not simulated -- CPU_WriteMem(4 bytes @ 0xE0002008) -- CPU_WriteMem(4 bytes @ 0xE000200C) -- CPU_WriteMem(4 bytes @ 0xE0002010) -- CPU_WriteMem(4 bytes @ 0xE0002014) -- CPU_WriteMem(4 bytes @ 0xE0002018) -- CPU_WriteMem(4 bytes @ 0xE000201C)  returns 0x00 (0016ms, 0941ms total)
T15C8 003:387 JLINK_ReadReg(R15)  returns 0x08000366 (0000ms, 0957ms total)
T15C8 003:387 JLINK_ReadReg(XPSR)  returns 0x61000000 (0000ms, 0957ms total)
T0E2C 003:387 JLINK_ReadReg(R0)  returns 0x08000131 (0000ms, 0957ms total)
T0E2C 003:387 JLINK_ReadReg(R1)  returns 0xE000ED08 (0000ms, 0957ms total)
T0E2C 003:387 JLINK_ReadReg(R2)  returns 0x00000008 (0000ms, 0957ms total)
T0E2C 003:387 JLINK_ReadReg(R3)  returns 0x40021000 (0000ms, 0957ms total)
T0E2C 003:387 JLINK_ReadReg(R4)  returns 0x00000000 (0000ms, 0957ms total)
T0E2C 003:387 JLINK_ReadReg(R5)  returns 0x00000000 (0000ms, 0957ms total)
T0E2C 003:387 JLINK_ReadReg(R6)  returns 0x00000000 (0000ms, 0957ms total)
T0E2C 003:387 JLINK_ReadReg(R7)  returns 0x00000000 (0000ms, 0957ms total)
T0E2C 003:387 JLINK_ReadReg(R8)  returns 0x00000000 (0000ms, 0957ms total)
T0E2C 003:387 JLINK_ReadReg(R9)  returns 0x20000160 (0000ms, 0957ms total)
T0E2C 003:387 JLINK_ReadReg(R10)  returns 0x00000000 (0000ms, 0957ms total)
T0E2C 003:387 JLINK_ReadReg(R11)  returns 0x00000000 (0000ms, 0957ms total)
T0E2C 003:387 JLINK_ReadReg(R12)  returns 0x00000000 (0000ms, 0957ms total)
T0E2C 003:387 JLINK_ReadReg(R13)  returns 0x20000470 (0000ms, 0957ms total)
T0E2C 003:387 JLINK_ReadReg(R14)  returns 0x0800024F (0000ms, 0957ms total)
T0E2C 003:387 JLINK_ReadReg(R15)  returns 0x08000366 (0000ms, 0957ms total)
T0E2C 003:387 JLINK_ReadReg(XPSR)  returns 0x61000000 (0001ms, 0957ms total)
T0E2C 003:388 JLINK_ReadReg(MSP)  returns 0x20000470 (0000ms, 0958ms total)
T0E2C 003:388 JLINK_ReadReg(PSP)  returns 0x20000800 (0000ms, 0958ms total)
T0E2C 003:388 JLINK_ReadReg(BASEPRI)  returns 0x00000000 (0000ms, 0958ms total)
T0E2C 003:388 JLINK_ReadReg(CONTROL)  returns 0x00000000 (0000ms, 0958ms total)
T0E2C 003:388 JLINK_ReadReg(FAULTMASK)  returns 0x00000000 (0000ms, 0958ms total)
T0E2C 003:388 JLINK_ReadReg(BASEPRI_MAX)  returns 0x00000000 (0000ms, 0958ms total)
T0E2C 003:388 JLINK_ReadMem (0x20000474, 0x0004 Bytes, ...) -- CPU_ReadMem(64 bytes @ 0x20000440) -- Updating C cache (64 bytes @ 0x20000440) -- Read from C cache (4 bytes @ 0x20000474) -- Data:  FF FF FF FF  returns 0x00 (0002ms, 0958ms total)
T0E2C 003:390 JLINK_ReadMemU32(0xE0001004, 0x0001 Items, ...) -- CPU_ReadMem(4 bytes @ 0xE0001004) -- Data:  F5 0F 00 00  returns 0x01 (0001ms, 0960ms total)
T0E2C 003:392 JLINK_ReadMem (0x08000366, 0x0002 Bytes, ...) -- CPU_ReadMem(64 bytes @ 0x08000340) -- Updating C cache (64 bytes @ 0x08000340) -- Read from C cache (2 bytes @ 0x08000366) -- Data:  00 47  returns 0x00 (0002ms, 0961ms total)
T0E2C 003:394 JLINK_ReadMem (0x08000368, 0x003C Bytes, ...) -- CPU_ReadMem(64 bytes @ 0x08000380) -- Updating C cache (64 bytes @ 0x08000380) -- Read from C cache (60 bytes @ 0x08000368) -- Data:  FE E7 FE E7 FE E7 FE E7 FE E7 FE E7 FE E7 FE E7 ...  returns 0x00 (0002ms, 0963ms total)
T15C8 003:904 JLINK_Step() -- Read from C cache (2 bytes @ 0x08000366) -- Not simulated -- CPU_WriteMem(4 bytes @ 0xE0002008) -- CPU_WriteMem(4 bytes @ 0xE000200C) -- CPU_WriteMem(4 bytes @ 0xE0002010) -- CPU_WriteMem(4 bytes @ 0xE0002014) -- CPU_WriteMem(4 bytes @ 0xE0002018) -- CPU_WriteMem(4 bytes @ 0xE000201C)  returns 0x00 (0139ms, 0965ms total)
T15C8 004:044 JLINK_ReadReg(R15)  returns 0x08000130 (0000ms, 1104ms total)
T15C8 004:044 JLINK_ReadReg(XPSR)  returns 0x61000000 (0000ms, 1104ms total)
T15C8 004:044 JLINK_ReadMem (0x0800012E, 0x0002 Bytes, ...) -- CPU_ReadMem(64 bytes @ 0x08000100) -- Updating C cache (64 bytes @ 0x08000100) -- Read from C cache (2 bytes @ 0x0800012E) -- Data:  00 08  returns 0x00 (0002ms, 1104ms total)
T15C8 004:046 JLINK_ReadMem (0x08000130, 0x003C Bytes, ...) -- CPU_ReadMem(64 bytes @ 0x08000140) -- Updating C cache (64 bytes @ 0x08000140) -- Read from C cache (60 bytes @ 0x08000130) -- Data:  DF F8 0C D0 02 F0 78 FF 00 48 00 47 45 01 00 08 ...  returns 0x00 (0002ms, 1106ms total)
T15C8 004:048 JLINK_Step() -- Read from C cache (2 bytes @ 0x08000130) -- Not simulated -- CPU_WriteMem(4 bytes @ 0xE0002008) -- CPU_WriteMem(4 bytes @ 0xE000200C) -- CPU_WriteMem(4 bytes @ 0xE0002010) -- CPU_WriteMem(4 bytes @ 0xE0002014) -- CPU_WriteMem(4 bytes @ 0xE0002018) -- CPU_WriteMem(4 bytes @ 0xE000201C)  returns 0x00 (0016ms, 1108ms total)
T15C8 004:064 JLINK_ReadReg(R15)  returns 0x08000134 (0000ms, 1124ms total)
T15C8 004:064 JLINK_ReadReg(XPSR)  returns 0x61000000 (0000ms, 1124ms total)
T15C8 004:064 JLINK_SetBPEx(Addr = 0x08000138, Type = 0xFFFFFFF2)  returns 0x00000002 (0000ms, 1124ms total)
T15C8 004:064 JLINK_Go() -- CPU_WriteMem(4 bytes @ 0xE0002008) -- CPU_WriteMem(4 bytes @ 0xE000200C) -- CPU_WriteMem(4 bytes @ 0xE0002010) -- CPU_WriteMem(4 bytes @ 0xE0002014) -- CPU_WriteMem(4 bytes @ 0xE0002018) -- CPU_WriteMem(4 bytes @ 0xE000201C) (0009ms, 1124ms total)
T15C8 004:173 JLINK_IsHalted()  returns TRUE (0006ms, 1133ms total)
T15C8 004:179 JLINK_Halt()  returns 0x00 (0000ms, 1133ms total)
T15C8 004:179 JLINK_IsHalted()  returns TRUE (0000ms, 1133ms total)
T15C8 004:179 JLINK_IsHalted()  returns TRUE (0000ms, 1133ms total)
T15C8 004:179 JLINK_IsHalted()  returns TRUE (0000ms, 1133ms total)
T15C8 004:179 JLINK_ReadReg(R15)  returns 0x08000138 (0000ms, 1133ms total)
T15C8 004:179 JLINK_ReadReg(XPSR)  returns 0x61000000 (0000ms, 1133ms total)
T15C8 004:179 JLINK_ClrBPEx(BPHandle = 0x00000002)  returns 0x00 (0000ms, 1133ms total)
T15C8 004:179 JLINK_ReadMemU32(0xE000ED30, 0x0001 Items, ...) -- CPU_ReadMem(4 bytes @ 0xE000ED30) -- Data:  03 00 00 00  returns 0x01 (0001ms, 1133ms total)
T15C8 004:180 JLINK_ReadMemU32(0xE0001028, 0x0001 Items, ...) -- CPU_ReadMem(4 bytes @ 0xE0001028) -- Data:  00 00 00 00  returns 0x01 (0002ms, 1134ms total)
T15C8 004:182 JLINK_ReadMemU32(0xE0001038, 0x0001 Items, ...) -- CPU_ReadMem(4 bytes @ 0xE0001038) -- Data:  00 02 00 00  returns 0x01 (0001ms, 1136ms total)
T15C8 004:183 JLINK_ReadMemU32(0xE0001048, 0x0001 Items, ...) -- CPU_ReadMem(4 bytes @ 0xE0001048) -- Data:  00 00 00 00  returns 0x01 (0002ms, 1137ms total)
T15C8 004:185 JLINK_ReadMemU32(0xE0001058, 0x0001 Items, ...) -- CPU_ReadMem(4 bytes @ 0xE0001058) -- Data:  00 00 00 00  returns 0x01 (0001ms, 1139ms total)
T15C8 004:186 JLINK_Step() -- CPU_ReadMem(64 bytes @ 0x08000100) -- Updating C cache (64 bytes @ 0x08000100) -- Read from C cache (2 bytes @ 0x08000138) -- Not simulated -- CPU_WriteMem(4 bytes @ 0xE0002008) -- CPU_WriteMem(4 bytes @ 0xE000200C) -- CPU_WriteMem(4 bytes @ 0xE0002010) -- CPU_WriteMem(4 bytes @ 0xE0002014) -- CPU_WriteMem(4 bytes @ 0xE0002018) -- CPU_WriteMem(4 bytes @ 0xE000201C)  returns 0x00 (0016ms, 1140ms total)
T15C8 004:202 JLINK_ReadReg(R15)  returns 0x0800013A (0000ms, 1156ms total)
T15C8 004:202 JLINK_ReadReg(XPSR)  returns 0x61000000 (0000ms, 1156ms total)
T15C8 004:202 JLINK_Step() -- CPU_ReadMem(64 bytes @ 0x08000100) -- Updating C cache (64 bytes @ 0x08000100) -- Read from C cache (2 bytes @ 0x0800013A) -- Not simulated -- CPU_WriteMem(4 bytes @ 0xE0002008) -- CPU_WriteMem(4 bytes @ 0xE000200C) -- CPU_WriteMem(4 bytes @ 0xE0002010) -- CPU_WriteMem(4 bytes @ 0xE0002014) -- CPU_WriteMem(4 bytes @ 0xE0002018) -- CPU_WriteMem(4 bytes @ 0xE000201C)  returns 0x00 (0015ms, 1156ms total)
T15C8 004:217 JLINK_ReadReg(R15)  returns 0x08000144 (0000ms, 1171ms total)
T15C8 004:217 JLINK_ReadReg(XPSR)  returns 0x61000000 (0000ms, 1171ms total)
T0E2C 004:218 JLINK_ReadReg(R0)  returns 0x08000145 (0000ms, 1171ms total)
T0E2C 004:218 JLINK_ReadReg(R1)  returns 0x20000470 (0000ms, 1171ms total)
T0E2C 004:218 JLINK_ReadReg(R2)  returns 0x00000000 (0000ms, 1171ms total)
T0E2C 004:218 JLINK_ReadReg(R3)  returns 0x0800307D (0000ms, 1171ms total)
T0E2C 004:218 JLINK_ReadReg(R4)  returns 0x080032AC (0000ms, 1171ms total)
T0E2C 004:218 JLINK_ReadReg(R5)  returns 0x080032AC (0000ms, 1171ms total)
T0E2C 004:218 JLINK_ReadReg(R6)  returns 0x00000000 (0000ms, 1171ms total)
T0E2C 004:218 JLINK_ReadReg(R7)  returns 0x00000000 (0000ms, 1171ms total)
T0E2C 004:218 JLINK_ReadReg(R8)  returns 0x00000000 (0000ms, 1171ms total)
T0E2C 004:218 JLINK_ReadReg(R9)  returns 0x20000160 (0000ms, 1171ms total)
T0E2C 004:218 JLINK_ReadReg(R10)  returns 0x00000000 (0000ms, 1171ms total)
T0E2C 004:218 JLINK_ReadReg(R11)  returns 0x00000000 (0000ms, 1171ms total)
T0E2C 004:218 JLINK_ReadReg(R12)  returns 0x00000000 (0000ms, 1171ms total)
T0E2C 004:218 JLINK_ReadReg(R13)  returns 0x20000470 (0000ms, 1171ms total)
T0E2C 004:218 JLINK_ReadReg(R14)  returns 0x08003045 (0000ms, 1171ms total)
T0E2C 004:218 JLINK_ReadReg(R15)  returns 0x08000144 (0000ms, 1171ms total)
T0E2C 004:218 JLINK_ReadReg(XPSR)  returns 0x61000000 (0000ms, 1171ms total)
T0E2C 004:218 JLINK_ReadReg(MSP)  returns 0x20000470 (0000ms, 1171ms total)
T0E2C 004:218 JLINK_ReadReg(PSP)  returns 0x20000800 (0000ms, 1171ms total)
T0E2C 004:218 JLINK_ReadReg(BASEPRI)  returns 0x00000000 (0000ms, 1171ms total)
T0E2C 004:218 JLINK_ReadReg(CONTROL)  returns 0x00000000 (0000ms, 1171ms total)
T0E2C 004:218 JLINK_ReadReg(FAULTMASK)  returns 0x00000000 (0000ms, 1171ms total)
T0E2C 004:218 JLINK_ReadReg(BASEPRI_MAX)  returns 0x00000000 (0000ms, 1171ms total)
T0E2C 004:222 JLINK_ReadMemU32(0xE0001004, 0x0001 Items, ...) -- CPU_ReadMem(4 bytes @ 0xE0001004) -- Data:  D8 19 00 00  returns 0x01 (0001ms, 1171ms total)
T0E2C 004:302 JLINK_ReadMem (0x08000144, 0x003C Bytes, ...) -- CPU_ReadMem(64 bytes @ 0x08000140) -- Updating C cache (64 bytes @ 0x08000140) -- Read from C cache (60 bytes @ 0x08000144) -- Data:  10 B5 4F F4 FA 70 02 F0 77 F8 02 F0 A1 FB 40 F2 ...  returns 0x00 (0001ms, 1172ms total)
T15C8 005:288 JLINK_Step() -- Read from C cache (2 bytes @ 0x08000144) -- Not simulated -- CPU_WriteMem(4 bytes @ 0xE0002008) -- CPU_WriteMem(4 bytes @ 0xE000200C) -- CPU_WriteMem(4 bytes @ 0xE0002010) -- CPU_WriteMem(4 bytes @ 0xE0002014) -- CPU_WriteMem(4 bytes @ 0xE0002018) -- CPU_WriteMem(4 bytes @ 0xE000201C)  returns 0x00 (0015ms, 1173ms total)
T15C8 005:303 JLINK_ReadReg(R15)  returns 0x08000146 (0000ms, 1188ms total)
T15C8 005:303 JLINK_ReadReg(XPSR)  returns 0x61000000 (0000ms, 1188ms total)
T0E2C 005:303 JLINK_ReadReg(R0)  returns 0x08000145 (0000ms, 1188ms total)
T0E2C 005:303 JLINK_ReadReg(R1)  returns 0x20000470 (0000ms, 1188ms total)
T0E2C 005:303 JLINK_ReadReg(R2)  returns 0x00000000 (0000ms, 1188ms total)
T0E2C 005:303 JLINK_ReadReg(R3)  returns 0x0800307D (0000ms, 1188ms total)
T0E2C 005:303 JLINK_ReadReg(R4)  returns 0x080032AC (0000ms, 1188ms total)
T0E2C 005:303 JLINK_ReadReg(R5)  returns 0x080032AC (0000ms, 1188ms total)
T0E2C 005:303 JLINK_ReadReg(R6)  returns 0x00000000 (0000ms, 1188ms total)
T0E2C 005:303 JLINK_ReadReg(R7)  returns 0x00000000 (0000ms, 1188ms total)
T0E2C 005:303 JLINK_ReadReg(R8)  returns 0x00000000 (0000ms, 1188ms total)
T0E2C 005:303 JLINK_ReadReg(R9)  returns 0x20000160 (0000ms, 1188ms total)
T0E2C 005:303 JLINK_ReadReg(R10)  returns 0x00000000 (0000ms, 1188ms total)
T0E2C 005:303 JLINK_ReadReg(R11)  returns 0x00000000 (0000ms, 1188ms total)
T0E2C 005:303 JLINK_ReadReg(R12)  returns 0x00000000 (0000ms, 1188ms total)
T0E2C 005:303 JLINK_ReadReg(R13)  returns 0x20000468 (0000ms, 1188ms total)
T0E2C 005:303 JLINK_ReadReg(R14)  returns 0x08003045 (0000ms, 1188ms total)
T0E2C 005:303 JLINK_ReadReg(R15)  returns 0x08000146 (0000ms, 1188ms total)
T0E2C 005:303 JLINK_ReadReg(XPSR)  returns 0x61000000 (0000ms, 1188ms total)
T0E2C 005:303 JLINK_ReadReg(MSP)  returns 0x20000468 (0000ms, 1188ms total)
T0E2C 005:303 JLINK_ReadReg(PSP)  returns 0x20000800 (0000ms, 1188ms total)
T0E2C 005:303 JLINK_ReadReg(BASEPRI)  returns 0x00000000 (0000ms, 1188ms total)
T0E2C 005:303 JLINK_ReadReg(CONTROL)  returns 0x00000000 (0000ms, 1188ms total)
T0E2C 005:303 JLINK_ReadReg(FAULTMASK)  returns 0x00000000 (0000ms, 1188ms total)
T0E2C 005:303 JLINK_ReadReg(BASEPRI_MAX)  returns 0x00000000 (0000ms, 1188ms total)
T0E2C 005:303 JLINK_ReadMem (0x2000046C, 0x0004 Bytes, ...) -- CPU_ReadMem(64 bytes @ 0x20000440) -- Updating C cache (64 bytes @ 0x20000440) -- Read from C cache (4 bytes @ 0x2000046C) -- Data:  45 30 00 08  returns 0x00 (0002ms, 1188ms total)
T0E2C 005:305 JLINK_ReadMemU32(0xE0001004, 0x0001 Items, ...) -- CPU_ReadMem(4 bytes @ 0xE0001004) -- Data:  DB 19 00 00  returns 0x01 (0001ms, 1190ms total)
T15C8 005:801 JLINK_ReadMem (0x08000146, 0x0002 Bytes, ...) -- CPU_ReadMem(64 bytes @ 0x08000140) -- Updating C cache (64 bytes @ 0x08000140) -- Read from C cache (2 bytes @ 0x08000146) -- Data:  4F F4  returns 0x00 (0002ms, 1191ms total)
T15C8 005:803 JLINK_ReadMem (0x08000148, 0x003C Bytes, ...) -- CPU_ReadMem(64 bytes @ 0x08000180) -- Updating C cache (64 bytes @ 0x08000180) -- Read from C cache (60 bytes @ 0x08000148) -- Data:  FA 70 02 F0 77 F8 02 F0 A1 FB 40 F2 DC 50 02 F0 ...  returns 0x00 (0002ms, 1193ms total)
T15C8 005:805 JLINK_Step() -- Read from C cache (2 bytes @ 0x08000146) -- Not simulated -- CPU_WriteMem(4 bytes @ 0xE0002008) -- CPU_WriteMem(4 bytes @ 0xE000200C) -- CPU_WriteMem(4 bytes @ 0xE0002010) -- CPU_WriteMem(4 bytes @ 0xE0002014) -- CPU_WriteMem(4 bytes @ 0xE0002018) -- CPU_WriteMem(4 bytes @ 0xE000201C)  returns 0x00 (0017ms, 1195ms total)
T15C8 005:822 JLINK_ReadReg(R15)  returns 0x0800014A (0000ms, 1212ms total)
T15C8 005:822 JLINK_ReadReg(XPSR)  returns 0x61000000 (0000ms, 1212ms total)
T15C8 005:822 JLINK_SetBPEx(Addr = 0x0800014E, Type = 0xFFFFFFF2)  returns 0x00000003 (0000ms, 1212ms total)
T15C8 005:822 JLINK_Go() -- CPU_WriteMem(4 bytes @ 0xE0002008) -- CPU_WriteMem(4 bytes @ 0xE000200C) -- CPU_WriteMem(4 bytes @ 0xE0002010) -- CPU_WriteMem(4 bytes @ 0xE0002014) -- CPU_WriteMem(4 bytes @ 0xE0002018) -- CPU_WriteMem(4 bytes @ 0xE000201C) (0009ms, 1212ms total)
T15C8 005:931 JLINK_IsHalted()  returns FALSE (0001ms, 1221ms total)
T15C8 006:032 JLINK_IsHalted()  returns FALSE (0001ms, 1221ms total)
T15C8 006:133 JLINK_IsHalted()  returns FALSE (0001ms, 1221ms total)
T15C8 006:234 JLINK_IsHalted()  returns FALSE (0001ms, 1221ms total)
T15C8 006:335 JLINK_IsHalted()  returns TRUE (0007ms, 1221ms total)
T15C8 006:342 JLINK_Halt()  returns 0x00 (0000ms, 1221ms total)
T15C8 006:342 JLINK_IsHalted()  returns TRUE (0000ms, 1221ms total)
T15C8 006:342 JLINK_IsHalted()  returns TRUE (0000ms, 1221ms total)
T15C8 006:342 JLINK_IsHalted()  returns TRUE (0000ms, 1221ms total)
T15C8 006:342 JLINK_ReadReg(R15)  returns 0x0800014E (0000ms, 1221ms total)
T15C8 006:342 JLINK_ReadReg(XPSR)  returns 0x01000000 (0000ms, 1221ms total)
T15C8 006:342 JLINK_ClrBPEx(BPHandle = 0x00000003)  returns 0x00 (0000ms, 1221ms total)
T15C8 006:342 JLINK_ReadMemU32(0xE000ED30, 0x0001 Items, ...) -- CPU_ReadMem(4 bytes @ 0xE000ED30) -- Data:  03 00 00 00  returns 0x01 (0001ms, 1221ms total)
T15C8 006:343 JLINK_ReadMemU32(0xE0001028, 0x0001 Items, ...) -- CPU_ReadMem(4 bytes @ 0xE0001028) -- Data:  00 00 00 00  returns 0x01 (0002ms, 1222ms total)
T15C8 006:345 JLINK_ReadMemU32(0xE0001038, 0x0001 Items, ...) -- CPU_ReadMem(4 bytes @ 0xE0001038) -- Data:  00 02 00 00  returns 0x01 (0001ms, 1224ms total)
T15C8 006:346 JLINK_ReadMemU32(0xE0001048, 0x0001 Items, ...) -- CPU_ReadMem(4 bytes @ 0xE0001048) -- Data:  00 00 00 00  returns 0x01 (0002ms, 1225ms total)
T15C8 006:348 JLINK_ReadMemU32(0xE0001058, 0x0001 Items, ...) -- CPU_ReadMem(4 bytes @ 0xE0001058) -- Data:  00 00 00 00  returns 0x01 (0001ms, 1227ms total)
T0E2C 006:350 JLINK_ReadReg(R0)  returns 0x00010001 (0000ms, 1228ms total)
T0E2C 006:350 JLINK_ReadReg(R1)  returns 0x000001F4 (0000ms, 1228ms total)
T0E2C 006:350 JLINK_ReadReg(R2)  returns 0x00000000 (0000ms, 1228ms total)
T0E2C 006:350 JLINK_ReadReg(R3)  returns 0xE000E000 (0000ms, 1228ms total)
T0E2C 006:350 JLINK_ReadReg(R4)  returns 0x080032AC (0000ms, 1228ms total)
T0E2C 006:350 JLINK_ReadReg(R5)  returns 0x080032AC (0000ms, 1228ms total)
T0E2C 006:350 JLINK_ReadReg(R6)  returns 0x00000000 (0000ms, 1228ms total)
T0E2C 006:350 JLINK_ReadReg(R7)  returns 0x00000000 (0000ms, 1228ms total)
T0E2C 006:350 JLINK_ReadReg(R8)  returns 0x00000000 (0000ms, 1228ms total)
T0E2C 006:350 JLINK_ReadReg(R9)  returns 0x20000160 (0000ms, 1228ms total)
T0E2C 006:350 JLINK_ReadReg(R10)  returns 0x00000000 (0000ms, 1228ms total)
T0E2C 006:350 JLINK_ReadReg(R11)  returns 0x00000000 (0000ms, 1228ms total)
T0E2C 006:350 JLINK_ReadReg(R12)  returns 0x00000000 (0000ms, 1228ms total)
T0E2C 006:350 JLINK_ReadReg(R13)  returns 0x20000468 (0000ms, 1228ms total)
T0E2C 006:350 JLINK_ReadReg(R14)  returns 0x0800014F (0000ms, 1228ms total)
T0E2C 006:350 JLINK_ReadReg(R15)  returns 0x0800014E (0000ms, 1228ms total)
T0E2C 006:350 JLINK_ReadReg(XPSR)  returns 0x01000000 (0000ms, 1228ms total)
T0E2C 006:350 JLINK_ReadReg(MSP)  returns 0x20000468 (0000ms, 1228ms total)
T0E2C 006:350 JLINK_ReadReg(PSP)  returns 0x20000800 (0000ms, 1228ms total)
T0E2C 006:350 JLINK_ReadReg(BASEPRI)  returns 0x00000000 (0000ms, 1228ms total)
T0E2C 006:350 JLINK_ReadReg(CONTROL)  returns 0x00000000 (0000ms, 1228ms total)
T0E2C 006:350 JLINK_ReadReg(FAULTMASK)  returns 0x00000000 (0000ms, 1228ms total)
T0E2C 006:350 JLINK_ReadReg(BASEPRI_MAX)  returns 0x00000000 (0001ms, 1228ms total)
T0E2C 006:351 JLINK_ReadMem (0x2000046C, 0x0004 Bytes, ...) -- CPU_ReadMem(64 bytes @ 0x20000440) -- Updating C cache (64 bytes @ 0x20000440) -- Read from C cache (4 bytes @ 0x2000046C) -- Data:  45 30 00 08  returns 0x00 (0001ms, 1229ms total)
T0E2C 006:352 JLINK_ReadMemU32(0xE0001004, 0x0001 Items, ...) -- CPU_ReadMem(4 bytes @ 0xE0001004) -- Data:  13 6B 25 02  returns 0x01 (0002ms, 1230ms total)
T0E2C 006:355 JLINK_ReadMem (0x0800014E, 0x0002 Bytes, ...) -- CPU_ReadMem(64 bytes @ 0x08000140) -- Updating C cache (64 bytes @ 0x08000140) -- Read from C cache (2 bytes @ 0x0800014E) -- Data:  02 F0  returns 0x00 (0002ms, 1232ms total)
T0E2C 006:357 JLINK_ReadMem (0x08000150, 0x003C Bytes, ...) -- CPU_ReadMem(64 bytes @ 0x08000180) -- Updating C cache (64 bytes @ 0x08000180) -- Read from C cache (60 bytes @ 0x08000150) -- Data:  A1 FB 40 F2 DC 50 02 F0 71 F8 0A 20 02 F0 39 FD ...  returns 0x00 (0002ms, 1234ms total)
T15C8 008:392 JLINK_SetBPEx(Addr = 0x08000152, Type = 0xFFFFFFF2)  returns 0x00000004 (0001ms, 1236ms total)
T15C8 008:393 JLINK_Go() -- CPU_WriteMem(4 bytes @ 0xE0002008) -- CPU_WriteMem(4 bytes @ 0xE000200C) -- CPU_WriteMem(4 bytes @ 0xE0002010) -- CPU_WriteMem(4 bytes @ 0xE0002014) -- CPU_WriteMem(4 bytes @ 0xE0002018) -- CPU_WriteMem(4 bytes @ 0xE000201C) (0010ms, 1237ms total)
T15C8 008:503 JLINK_IsHalted()  returns TRUE (0006ms, 1247ms total)
T15C8 008:509 JLINK_Halt()  returns 0x00 (0000ms, 1247ms total)
T15C8 008:509 JLINK_IsHalted()  returns TRUE (0000ms, 1247ms total)
T15C8 008:509 JLINK_IsHalted()  returns TRUE (0000ms, 1247ms total)
T15C8 008:509 JLINK_IsHalted()  returns TRUE (0000ms, 1247ms total)
T15C8 008:509 JLINK_ReadReg(R15)  returns 0x08000152 (0000ms, 1247ms total)
T15C8 008:509 JLINK_ReadReg(XPSR)  returns 0x01000000 (0000ms, 1247ms total)
T15C8 008:509 JLINK_ClrBPEx(BPHandle = 0x00000004)  returns 0x00 (0000ms, 1247ms total)
T15C8 008:509 JLINK_ReadMemU32(0xE000ED30, 0x0001 Items, ...) -- CPU_ReadMem(4 bytes @ 0xE000ED30) -- Data:  03 00 00 00  returns 0x01 (0001ms, 1247ms total)
T15C8 008:510 JLINK_ReadMemU32(0xE0001028, 0x0001 Items, ...) -- CPU_ReadMem(4 bytes @ 0xE0001028) -- Data:  00 00 00 00  returns 0x01 (0002ms, 1248ms total)
T15C8 008:512 JLINK_ReadMemU32(0xE0001038, 0x0001 Items, ...) -- CPU_ReadMem(4 bytes @ 0xE0001038) -- Data:  00 02 00 00  returns 0x01 (0001ms, 1250ms total)
T15C8 008:513 JLINK_ReadMemU32(0xE0001048, 0x0001 Items, ...) -- CPU_ReadMem(4 bytes @ 0xE0001048) -- Data:  00 00 00 00  returns 0x01 (0002ms, 1251ms total)
T15C8 008:515 JLINK_ReadMemU32(0xE0001058, 0x0001 Items, ...) -- CPU_ReadMem(4 bytes @ 0xE0001058) -- Data:  00 00 00 00  returns 0x01 (0001ms, 1253ms total)
T0E2C 008:517 JLINK_ReadReg(R0)  returns 0x20000444 (0000ms, 1254ms total)
T0E2C 008:517 JLINK_ReadReg(R1)  returns 0x00000010 (0000ms, 1254ms total)
T0E2C 008:517 JLINK_ReadReg(R2)  returns 0x00000007 (0000ms, 1254ms total)
T0E2C 008:517 JLINK_ReadReg(R3)  returns 0x10037FFB (0000ms, 1254ms total)
T0E2C 008:517 JLINK_ReadReg(R4)  returns 0x080032AC (0000ms, 1254ms total)
T0E2C 008:517 JLINK_ReadReg(R5)  returns 0x080032AC (0000ms, 1254ms total)
T0E2C 008:517 JLINK_ReadReg(R6)  returns 0x00000000 (0000ms, 1254ms total)
T0E2C 008:517 JLINK_ReadReg(R7)  returns 0x00000000 (0000ms, 1254ms total)
T0E2C 008:517 JLINK_ReadReg(R8)  returns 0x00000000 (0000ms, 1254ms total)
T0E2C 008:517 JLINK_ReadReg(R9)  returns 0x20000160 (0000ms, 1254ms total)
T0E2C 008:517 JLINK_ReadReg(R10)  returns 0x00000000 (0000ms, 1254ms total)
T0E2C 008:517 JLINK_ReadReg(R11)  returns 0x00000000 (0000ms, 1254ms total)
T0E2C 008:517 JLINK_ReadReg(R12)  returns 0x00000008 (0000ms, 1254ms total)
T0E2C 008:517 JLINK_ReadReg(R13)  returns 0x20000468 (0000ms, 1254ms total)
T0E2C 008:517 JLINK_ReadReg(R14)  returns 0x0800285D (0000ms, 1254ms total)
T0E2C 008:517 JLINK_ReadReg(R15)  returns 0x08000152 (0000ms, 1254ms total)
T0E2C 008:517 JLINK_ReadReg(XPSR)  returns 0x01000000 (0000ms, 1254ms total)
T0E2C 008:517 JLINK_ReadReg(MSP)  returns 0x20000468 (0000ms, 1254ms total)
T0E2C 008:517 JLINK_ReadReg(PSP)  returns 0x20000800 (0000ms, 1254ms total)
T0E2C 008:517 JLINK_ReadReg(BASEPRI)  returns 0x00000000 (0000ms, 1254ms total)
T0E2C 008:517 JLINK_ReadReg(CONTROL)  returns 0x00000000 (0000ms, 1254ms total)
T0E2C 008:517 JLINK_ReadReg(FAULTMASK)  returns 0x00000000 (0000ms, 1254ms total)
T0E2C 008:517 JLINK_ReadReg(BASEPRI_MAX)  returns 0x00000000 (0001ms, 1254ms total)
T0E2C 008:518 JLINK_ReadMem (0x2000046C, 0x0004 Bytes, ...) -- CPU_ReadMem(64 bytes @ 0x20000440) -- Updating C cache (64 bytes @ 0x20000440) -- Read from C cache (4 bytes @ 0x2000046C) -- Data:  45 30 00 08  returns 0x00 (0002ms, 1255ms total)
T0E2C 008:520 JLINK_ReadMemU32(0xE0001004, 0x0001 Items, ...) -- CPU_ReadMem(4 bytes @ 0xE0001004) -- Data:  2C 7C 25 02  returns 0x01 (0001ms, 1257ms total)
T15C8 009:440 JLINK_ReadMem (0x08000152, 0x0002 Bytes, ...) -- CPU_ReadMem(64 bytes @ 0x08000140) -- Updating C cache (64 bytes @ 0x08000140) -- Read from C cache (2 bytes @ 0x08000152) -- Data:  40 F2  returns 0x00 (0003ms, 1258ms total)
T15C8 009:443 JLINK_ReadMem (0x08000154, 0x003C Bytes, ...) -- CPU_ReadMem(64 bytes @ 0x08000180) -- Updating C cache (64 bytes @ 0x08000180) -- Read from C cache (60 bytes @ 0x08000154) -- Data:  DC 50 02 F0 71 F8 0A 20 02 F0 39 FD 00 20 10 BD ...  returns 0x00 (0002ms, 1261ms total)
T15C8 009:445 JLINK_Step() -- Read from C cache (2 bytes @ 0x08000152) -- Not simulated -- CPU_WriteMem(4 bytes @ 0xE0002008) -- CPU_WriteMem(4 bytes @ 0xE000200C) -- CPU_WriteMem(4 bytes @ 0xE0002010) -- CPU_WriteMem(4 bytes @ 0xE0002014) -- CPU_WriteMem(4 bytes @ 0xE0002018) -- CPU_WriteMem(4 bytes @ 0xE000201C)  returns 0x00 (0017ms, 1263ms total)
T15C8 009:462 JLINK_ReadReg(R15)  returns 0x08000156 (0000ms, 1280ms total)
T15C8 009:462 JLINK_ReadReg(XPSR)  returns 0x01000000 (0000ms, 1280ms total)
T15C8 009:462 JLINK_SetBPEx(Addr = 0x0800015A, Type = 0xFFFFFFF2)  returns 0x00000005 (0000ms, 1280ms total)
T15C8 009:462 JLINK_Go() -- CPU_WriteMem(4 bytes @ 0xE0002008) -- CPU_WriteMem(4 bytes @ 0xE000200C) -- CPU_WriteMem(4 bytes @ 0xE0002010) -- CPU_WriteMem(4 bytes @ 0xE0002014) -- CPU_WriteMem(4 bytes @ 0xE0002018) -- CPU_WriteMem(4 bytes @ 0xE000201C) (0009ms, 1280ms total)
T15C8 009:571 JLINK_IsHalted()  returns FALSE (0001ms, 1289ms total)
T15C8 009:672 JLINK_IsHalted()  returns FALSE (0001ms, 1289ms total)
T15C8 009:773 JLINK_IsHalted()  returns FALSE (0001ms, 1289ms total)
T15C8 009:874 JLINK_IsHalted()  returns FALSE (0001ms, 1289ms total)
T15C8 009:975 JLINK_IsHalted()  returns FALSE (0001ms, 1289ms total)
T15C8 010:076 JLINK_ReadMemU32(0xE0001004, 0x0001 Items, ...) -- CPU is running -- CPU_ReadMem(4 bytes @ 0xE0001004) -- Data:  AA 64 BF 04  returns 0x01 (0001ms, 1289ms total)
T15C8 010:078 JLINK_IsHalted()  returns FALSE (0001ms, 1290ms total)
T15C8 010:179 JLINK_IsHalted()  returns FALSE (0001ms, 1290ms total)
T15C8 010:280 JLINK_IsHalted()  returns FALSE (0001ms, 1290ms total)
T15C8 010:381 JLINK_IsHalted()  returns FALSE (0001ms, 1290ms total)
T15C8 010:482 JLINK_IsHalted()  returns FALSE (0002ms, 1290ms total)
T15C8 010:584 JLINK_IsHalted()  returns FALSE (0001ms, 1290ms total)
T15C8 010:685 JLINK_ReadMemU32(0xE0001004, 0x0001 Items, ...) -- CPU is running -- CPU_ReadMem(4 bytes @ 0xE0001004) -- Data:  34 45 5C 07  returns 0x01 (0001ms, 1290ms total)
T15C8 010:686 JLINK_IsHalted()  returns FALSE (0001ms, 1291ms total)
T15C8 010:787 JLINK_IsHalted()  returns FALSE (0001ms, 1291ms total)
T15C8 010:888 JLINK_IsHalted()  returns FALSE (0000ms, 1291ms total)
T15C8 010:988 JLINK_IsHalted()  returns TRUE (0005ms, 1291ms total)
T15C8 010:993 JLINK_Halt()  returns 0x00 (0000ms, 1291ms total)
T15C8 010:993 JLINK_IsHalted()  returns TRUE (0000ms, 1291ms total)
T15C8 010:993 JLINK_IsHalted()  returns TRUE (0000ms, 1291ms total)
T15C8 010:993 JLINK_IsHalted()  returns TRUE (0000ms, 1291ms total)
T15C8 010:993 JLINK_ReadReg(R15)  returns 0x0800015A (0000ms, 1291ms total)
T15C8 010:993 JLINK_ReadReg(XPSR)  returns 0x01000000 (0000ms, 1291ms total)
T15C8 010:993 JLINK_ClrBPEx(BPHandle = 0x00000005)  returns 0x00 (0000ms, 1291ms total)
T15C8 010:993 JLINK_ReadMemU32(0xE000ED30, 0x0001 Items, ...) -- CPU_ReadMem(4 bytes @ 0xE000ED30) -- Data:  03 00 00 00  returns 0x01 (0001ms, 1291ms total)
T15C8 010:994 JLINK_ReadMemU32(0xE0001028, 0x0001 Items, ...) -- CPU_ReadMem(4 bytes @ 0xE0001028) -- Data:  00 00 00 00  returns 0x01 (0001ms, 1292ms total)
T15C8 010:995 JLINK_ReadMemU32(0xE0001038, 0x0001 Items, ...) -- CPU_ReadMem(4 bytes @ 0xE0001038) -- Data:  00 02 00 00  returns 0x01 (0001ms, 1293ms total)
T15C8 010:996 JLINK_ReadMemU32(0xE0001048, 0x0001 Items, ...) -- CPU_ReadMem(4 bytes @ 0xE0001048) -- Data:  00 00 00 00  returns 0x01 (0001ms, 1294ms total)
T15C8 010:997 JLINK_ReadMemU32(0xE0001058, 0x0001 Items, ...) -- CPU_ReadMem(4 bytes @ 0xE0001058) -- Data:  00 00 00 00  returns 0x01 (0001ms, 1295ms total)
T0E2C 010:999 JLINK_ReadReg(R0)  returns 0x00010001 (0000ms, 1296ms total)
T0E2C 010:999 JLINK_ReadReg(R1)  returns 0x000005DC (0000ms, 1296ms total)
T0E2C 010:999 JLINK_ReadReg(R2)  returns 0x00000000 (0000ms, 1296ms total)
T0E2C 010:999 JLINK_ReadReg(R3)  returns 0xE000E000 (0000ms, 1296ms total)
T0E2C 010:999 JLINK_ReadReg(R4)  returns 0x080032AC (0000ms, 1296ms total)
T0E2C 010:999 JLINK_ReadReg(R5)  returns 0x080032AC (0000ms, 1296ms total)
T0E2C 010:999 JLINK_ReadReg(R6)  returns 0x00000000 (0000ms, 1296ms total)
T0E2C 010:999 JLINK_ReadReg(R7)  returns 0x00000000 (0000ms, 1296ms total)
T0E2C 010:999 JLINK_ReadReg(R8)  returns 0x00000000 (0000ms, 1296ms total)
T0E2C 010:999 JLINK_ReadReg(R9)  returns 0x20000160 (0000ms, 1296ms total)
T0E2C 010:999 JLINK_ReadReg(R10)  returns 0x00000000 (0000ms, 1296ms total)
T0E2C 010:999 JLINK_ReadReg(R11)  returns 0x00000000 (0000ms, 1296ms total)
T0E2C 010:999 JLINK_ReadReg(R12)  returns 0x00000008 (0000ms, 1296ms total)
T0E2C 010:999 JLINK_ReadReg(R13)  returns 0x20000468 (0000ms, 1296ms total)
T0E2C 010:999 JLINK_ReadReg(R14)  returns 0x0800015B (0000ms, 1296ms total)
T0E2C 010:999 JLINK_ReadReg(R15)  returns 0x0800015A (0000ms, 1296ms total)
T0E2C 010:999 JLINK_ReadReg(XPSR)  returns 0x01000000 (0000ms, 1296ms total)
T0E2C 010:999 JLINK_ReadReg(MSP)  returns 0x20000468 (0000ms, 1296ms total)
T0E2C 010:999 JLINK_ReadReg(PSP)  returns 0x20000800 (0000ms, 1296ms total)
T0E2C 010:999 JLINK_ReadReg(BASEPRI)  returns 0x00000000 (0000ms, 1296ms total)
T0E2C 010:999 JLINK_ReadReg(CONTROL)  returns 0x00000000 (0000ms, 1296ms total)
T0E2C 010:999 JLINK_ReadReg(FAULTMASK)  returns 0x00000000 (0000ms, 1296ms total)
T0E2C 010:999 JLINK_ReadReg(BASEPRI_MAX)  returns 0x00000000 (0000ms, 1296ms total)
T0E2C 010:999 JLINK_ReadMem (0x2000046C, 0x0004 Bytes, ...) -- CPU_ReadMem(64 bytes @ 0x20000440) -- Updating C cache (64 bytes @ 0x20000440) -- Read from C cache (4 bytes @ 0x2000046C) -- Data:  45 30 00 08  returns 0x00 (0001ms, 1296ms total)
T0E2C 011:001 JLINK_ReadMemU32(0xE0001004, 0x0001 Items, ...) -- CPU_ReadMem(4 bytes @ 0xE0001004) -- Data:  63 6F 95 08  returns 0x01 (0000ms, 1297ms total)
